T3100 7020:670 SEGGER J-Link V6.30h Log File (0001ms, 17568ms total)
T3100 7020:670 DLL Compiled: Mar 16 2018 18:02:51 (0001ms, 17568ms total)
T3100 7020:670 Logging started @ 2021-08-10 18:22 (0001ms, 17568ms total)
T3100 7020:671 JLINK_SetWarnOutHandler(...) (0000ms, 17568ms total)
T3100 7020:671 JLINK_OpenEx(...)
Firmware: J-Link OB-STM32F072-CortexM compiled Mar  8 2020 11:15:54
Hardware: V1.00
Feature(s): GDB, RDI, FlashBP, FlashDL, JFlash, RDDI
TELNET listener socket opened on port 19021WEBSRV 
Starting webserver (0302ms, 17870ms total)
T3100 7020:671 WEBSRV Webserver running on local port 19080 (0303ms, 17871ms total)
T3100 7020:671   returns O.K. (0303ms, 17871ms total)
T3100 7020:974 JLINK_GetEmuCaps()  returns 0xB8EA5A33 (0000ms, 17871ms total)
T3100 7020:974 JLINK_TIF_GetAvailable(...) (0001ms, 17872ms total)
T3100 7020:975 JLINK_SetErrorOutHandler(...) (0000ms, 17872ms total)
T3100 7020:975 JLINK_ExecCommand("ProjectFile = "H:\NUPO\Work\Charger\750W\Software\Digital_Power_B\BST_700W\RTT_Nano_750W_Chrg_CBT6_V0.0.2 20210519\USER\JLinkSettings.ini"", ...).   returns 0x00 (0009ms, 17881ms total)
T3100 7020:990 JLINK_ExecCommand("Device = STM32F103CB", ...). Device "STM32F103CB" selected.  returns 0x00 (0010ms, 17891ms total)
T3100 7021:000 JLINK_ExecCommand("DisableConnectionTimeout", ...).   returns 0x01 (0000ms, 17891ms total)
T3100 7021:000 JLINK_GetHardwareVersion()  returns 0x2710 (0000ms, 17891ms total)
T3100 7021:000 JLINK_GetDLLVersion()  returns 63008 (0000ms, 17891ms total)
T3100 7021:000 JLINK_GetFirmwareString(...) (0000ms, 17891ms total)
T3100 7021:019 JLINK_GetDLLVersion()  returns 63008 (0000ms, 17891ms total)
T3100 7021:019 JLINK_GetCompileDateTime() (0000ms, 17891ms total)
T3100 7021:031 JLINK_GetFirmwareString(...) (0000ms, 17891ms total)
T3100 7021:045 JLINK_GetHardwareVersion()  returns 0x2710 (0000ms, 17891ms total)
T3100 7021:070 JLINK_TIF_Select(JLINKARM_TIF_SWD)  returns 0x00 (0002ms, 17893ms total)
T3100 7021:072 JLINK_SetSpeed(5000) (0000ms, 17893ms total)
T3100 7021:072 JLINK_GetId() >0x10B TIF>Found SW-DP with ID 0x1BA01477 >0x0D TIF> >0x28 TIF> >0x0D TIF> >0x28 TIF> >0x0D TIF> >0x28 TIF> >0x0D TIF> >0x28 TIF> >0x0D TIF> >0x21 TIF> >0x0D TIF> >0x28 TIF> >0x0D TIF> >0x28 TIF> >0x0D TIF> >0x28 TIF> >0x0D TIF> >0x21 TIF> >0x0D TIF> >0x21 TIF> >0x0D TIF> >0x28 TIF> >0x0D TIF> >0x21 TIF> >0x0D TIF> >0x21 TIF> >0x0D TIF> >0x28 TIF> >0x0D TIF> >0x28 TIF> >0x0D TIF> >0x28 TIF> >0x0D TIF> >0x21 TIF> >0x0D TIF> >0x21 TIF> >0x0D TIF> >0x28 TIF> >0x0D TIF>
 >0x21 TIF> >0x0D TIF> >0x21 TIF> >0x0D TIF> >0x28 TIF> >0x0D TIF> >0x21 TIF> >0x0D TIF> >0x21 TIF> >0x0D TIF> >0x28 TIF> >0x0D TIF> >0x21 TIF> >0x0D TIF> >0x21 TIF> >0x0D TIF> >0x28 TIF> >0x0D TIF> >0x21 TIF> >0x0D TIF> >0x21 TIF> >0x10B TIF>Found SW-DP with ID 0x1BA01477 >0x0D TIF> >0x28 TIF> >0x0D TIF> >0x28 TIF> >0x0D TIF> >0x28 TIF> >0x0D TIF> >0x28 TIF> >0x0D TIF> >0x21 TIF> >0x0D TIF> >0x28 TIF>Scanning AP map to find all available APs >0x0D TIF> >0x28 TIF> >0x0D TIF> >0x21 TIF> >0x0D TIF>
 >0x21 TIF> >0x0D TIF> >0x28 TIF> >0x0D TIF> >0x21 TIF> >0x0D TIF> >0x21 TIF>AP[1]: Stopped AP scan as end of AP map has been reachedAP[0]: AHB-AP (IDR: 0x14770011)Iterating through AP map to find AHB-AP to use >0x42 TIF> >0x28 TIF> >0x0D TIF> >0x28 TIF> >0x0D TIF> >0x21 TIF> >0x0D TIF> >0x21 TIF> >0x42 TIF> >0x28 TIF> >0x0D TIF> >0x28 TIF> >0x0D TIF> >0x28 TIF> >0x0D TIF> >0x21 TIF> >0x0D TIF> >0x21 TIF>AP[0]: Core foundAP[0]: AHB-AP ROM base: 0xE00FF000 >0x0D TIF> >0x28 TIF> >0x0D TIF> >0x28 TIF>
 >0x0D TIF> >0x28 TIF> >0x0D TIF> >0x21 TIF> >0x0D TIF> >0x21 TIF>CPUID register: 0x411FC231. Implementer code: 0x41 (ARM)Found Cortex-M3 r1p1, Little endian. -- CPU_ReadMem(4 bytes @ 0xE000EDF0) -- CPU_WriteMem(4 bytes @ 0xE000EDF0) -- CPU_ReadMem(4 bytes @ 0xE0002000)FPUnit: 6 code (BP) slots and 2 literal slots -- CPU_ReadMem(4 bytes @ 0xE000EDFC) -- CPU_WriteMem(4 bytes @ 0xE000EDFC) -- CPU_ReadMem(4 bytes @ 0xE0001000) -- CPU_WriteMem(4 bytes @ 0xE0001000) -- CPU_ReadMem(4 bytes @ 0xE000ED88)
 -- CPU_WriteMem(4 bytes @ 0xE000ED88) -- CPU_ReadMem(4 bytes @ 0xE000ED88) -- CPU_WriteMem(4 bytes @ 0xE000ED88)CoreSight components:ROMTbl[0] @ E00FF000 -- CPU_ReadMem(16 bytes @ 0xE00FF000) -- CPU_ReadMem(16 bytes @ 0xE000EFF0) -- CPU_ReadMem(16 bytes @ 0xE000EFE0)ROMTbl[0][0]: E000E000, CID: B105E00D, PID: 001BB000 SCS -- CPU_ReadMem(16 bytes @ 0xE0001FF0) -- CPU_ReadMem(16 bytes @ 0xE0001FE0)ROMTbl[0][1]: E0001000, CID: B105E00D, PID: 001BB002 DWT -- CPU_ReadMem(16 bytes @ 0xE0002FF0)
 -- CPU_ReadMem(16 bytes @ 0xE0002FE0)ROMTbl[0][2]: E0002000, CID: B105E00D, PID: 000BB003 FPB -- CPU_ReadMem(16 bytes @ 0xE0000FF0) -- CPU_ReadMem(16 bytes @ 0xE0000FE0)ROMTbl[0][3]: E0000000, CID: B105E00D, PID: 001BB001 ITM -- CPU_ReadMem(16 bytes @ 0xE00FF010) -- CPU_ReadMem(16 bytes @ 0xE0040FF0) -- CPU_ReadMem(16 bytes @ 0xE0040FE0)ROMTbl[0][4]: E0040000, CID: B105900D, PID: 001BB923 TPIU-Lite >0x0D TIF> >0x21 TIF>  returns 0x1BA01477 (0367ms, 18260ms total)
T3100 7021:439 JLINK_GetDLLVersion()  returns 63008 (0000ms, 18260ms total)
T3100 7021:439 JLINK_CORE_GetFound()  returns 0x30000FF (0000ms, 18260ms total)
T3100 7021:439 JLINK_GetDebugInfo(0x100 = JLINKARM_ROM_TABLE_ADDR_INDEX) -- Value=0xE00FF000  returns 0x00 (0000ms, 18260ms total)
T3100 7021:449 JLINK_GetDebugInfo(0x100 = JLINKARM_ROM_TABLE_ADDR_INDEX) -- Value=0xE00FF000  returns 0x00 (0000ms, 18260ms total)
T3100 7021:449 JLINK_GetDebugInfo(0x101 = JLINKARM_DEBUG_INFO_ETM_ADDR_INDEX) -- Value=0x00000000  returns 0x00 (0000ms, 18260ms total)
T3100 7021:449 JLINK_ReadMemEx(0xE0041FF0, 0x0010 Bytes, ..., Flags = 0x02000004) -- CPU_ReadMem(16 bytes @ 0xE0041FF0) - Data: 00 00 00 00 00 00 00 00 00 00 00 00 00 00 00 00  returns 0x10 (0001ms, 18261ms total)
T3100 7021:450 JLINK_GetDebugInfo(0x102 = JLINKARM_DEBUG_INFO_MTB_ADDR_INDEX) -- Value=0x00000000  returns 0x00 (0000ms, 18261ms total)
T3100 7021:450 JLINK_GetDebugInfo(0x103 = JLINKARM_DEBUG_INFO_TPIU_ADDR_INDEX) -- Value=0xE0040000  returns 0x00 (0000ms, 18261ms total)
T3100 7021:450 JLINK_GetDebugInfo(0x104 = JLINKARM_DEBUG_INFO_ITM_ADDR_INDEX) -- Value=0xE0000000  returns 0x00 (0000ms, 18261ms total)
T3100 7021:450 JLINK_GetDebugInfo(0x105 = JLINKARM_DEBUG_INFO_DWT_ADDR_INDEX) -- Value=0xE0001000  returns 0x00 (0000ms, 18261ms total)
T3100 7021:450 JLINK_GetDebugInfo(0x106 = JLINKARM_DEBUG_INFO_FPB_ADDR_INDEX) -- Value=0xE0002000  returns 0x00 (0000ms, 18261ms total)
T3100 7021:450 JLINK_GetDebugInfo(0x107 = JLINKARM_DEBUG_INFO_NVIC_ADDR_INDEX) -- Value=0xE000E000  returns 0x00 (0000ms, 18261ms total)
T3100 7021:450 JLINK_GetDebugInfo(0x10C = JLINKARM_DEBUG_INFO_DBG_ADDR_INDEX) -- Value=0xE000EDF0  returns 0x00 (0000ms, 18261ms total)
T3100 7021:450 JLINK_GetDebugInfo(0x01 = Unknown) -- Value=0x00000000  returns 0x00 (0000ms, 18261ms total)
T3100 7021:450 JLINK_ReadMemU32(0xE000ED00, 0x0001 Items, ...) -- CPU_ReadMem(4 bytes @ 0xE000ED00) - Data: 31 C2 1F 41  returns 0x01 (0001ms, 18262ms total)
T3100 7021:451 JLINK_GetDebugInfo(0x10F = JLINKARM_DEBUG_INFO_HAS_CORTEX_M_SECURITY_EXT_INDEX) -- Value=0x00000000  returns 0x00 (0000ms, 18262ms total)
T3100 7021:451 JLINK_SetResetType(JLINKARM_CM3_RESET_TYPE_NORMAL)  returns JLINKARM_CM3_RESET_TYPE_NORMAL (0000ms, 18262ms total)
T3100 7021:451 JLINK_Reset() -- CPU is running -- CPU_WriteMem(4 bytes @ 0xE000EDF0) -- CPU is running -- CPU_WriteMem(4 bytes @ 0xE000EDFC)Reset: Halt core after reset via DEMCR.VC_CORERESET. >0x35 TIF>Reset: Reset device via AIRCR.SYSRESETREQ. -- CPU is running -- CPU_WriteMem(4 bytes @ 0xE000ED0C) >0x0D TIF> >0x28 TIF> -- CPU_ReadMem(4 bytes @ 0xE000EDF0) -- CPU_ReadMem(4 bytes @ 0xE000EDF0) -- CPU is running -- CPU_WriteMem(4 bytes @ 0xE000EDF0) -- CPU is running -- CPU_WriteMem(4 bytes @ 0xE000EDFC)
 -- CPU_ReadMem(4 bytes @ 0xE000EDF0) -- CPU_WriteMem(4 bytes @ 0xE0002000) -- CPU_ReadMem(4 bytes @ 0xE000EDFC) -- CPU_ReadMem(4 bytes @ 0xE0001000) (0091ms, 18353ms total)
T3100 7021:542 JLINK_Halt()  returns 0x00 (0000ms, 18353ms total)
T3100 7021:542 JLINK_ReadMemU32(0xE000EDF0, 0x0001 Items, ...) -- CPU_ReadMem(4 bytes @ 0xE000EDF0) - Data: 03 00 03 00  returns 0x01 (0001ms, 18354ms total)
T3100 7021:543 JLINK_WriteU32(0xE000EDF0, 0xA05F0003) -- CPU_WriteMem(4 bytes @ 0xE000EDF0)  returns 0x00 (0001ms, 18355ms total)
T3100 7021:544 JLINK_WriteU32(0xE000EDFC, 0x01000000) -- CPU_WriteMem(4 bytes @ 0xE000EDFC)  returns 0x00 (0000ms, 18355ms total)
T3100 7021:576 JLINK_GetHWStatus(...)  returns 0x00 (0000ms, 18355ms total)
T3100 7021:604 JLINK_GetNumBPUnits(Type = 0xFFFFFF00)  returns 0x06 (0000ms, 18355ms total)
T3100 7021:604 JLINK_GetNumBPUnits(Type = 0xF0)  returns 0x2000 (0000ms, 18355ms total)
T3100 7021:604 JLINK_GetNumWPUnits()  returns 0x04 (0000ms, 18355ms total)
T3100 7021:634 JLINK_GetSpeed()  returns 0x7D0 (0000ms, 18355ms total)
T3100 7021:654 JLINK_ReadMemU32(0xE000E004, 0x0001 Items, ...) -- CPU_ReadMem(4 bytes @ 0xE000E004) - Data: 01 00 00 00  returns 0x01 (0000ms, 18355ms total)
T3100 7021:654 JLINK_ReadMemU32(0xE000E004, 0x0001 Items, ...) -- CPU_ReadMem(4 bytes @ 0xE000E004) - Data: 01 00 00 00  returns 0x01 (0001ms, 18356ms total)
T3100 7021:655 JLINK_WriteMemEx(0xE0001000, 0x001C Bytes, ..., Flags = 0x02000004) - Data: 01 00 00 00 00 00 00 00 00 00 00 00 00 00 00 00 ... -- CPU_WriteMem(28 bytes @ 0xE0001000)  returns 0x1C (0002ms, 18358ms total)
T3100 7021:657 JLINK_Halt()  returns 0x00 (0001ms, 18359ms total)
T3100 7021:658 JLINK_IsHalted()  returns TRUE (0000ms, 18359ms total)
T3100 7021:667 JLINK_WriteMem(0x20000000, 0x0164 Bytes, ...) - Data: 00 BE 0A E0 0D 78 2D 06 68 40 08 24 40 00 00 D3 ... -- CPU_WriteMem(356 bytes @ 0x20000000)  returns 0x164 (0005ms, 18364ms total)
T3100 7021:673 JLINK_WriteReg(R0, 0x08000000)  returns 0x00 (0000ms, 18364ms total)
T3100 7021:673 JLINK_WriteReg(R1, 0x00B71B00)  returns 0x00 (0000ms, 18364ms total)
T3100 7021:673 JLINK_WriteReg(R2, 0x00000001)  returns 0x00 (0000ms, 18364ms total)
T3100 7021:673 JLINK_WriteReg(R3, 0x00000000)  returns 0x00 (0000ms, 18364ms total)
T3100 7021:673 JLINK_WriteReg(R4, 0x00000000)  returns 0x00 (0000ms, 18364ms total)
T3100 7021:673 JLINK_WriteReg(R5, 0x00000000)  returns 0x00 (0000ms, 18364ms total)
T3100 7021:673 JLINK_WriteReg(R6, 0x00000000)  returns 0x00 (0000ms, 18364ms total)
T3100 7021:673 JLINK_WriteReg(R7, 0x00000000)  returns 0x00 (0000ms, 18364ms total)
T3100 7021:673 JLINK_WriteReg(R8, 0x00000000)  returns 0x00 (0000ms, 18364ms total)
T3100 7021:673 JLINK_WriteReg(R9, 0x20000160)  returns 0x00 (0000ms, 18364ms total)
T3100 7021:673 JLINK_WriteReg(R10, 0x00000000)  returns 0x00 (0000ms, 18364ms total)
T3100 7021:673 JLINK_WriteReg(R11, 0x00000000)  returns 0x00 (0000ms, 18364ms total)
T3100 7021:673 JLINK_WriteReg(R12, 0x00000000)  returns 0x00 (0000ms, 18364ms total)
T3100 7021:673 JLINK_WriteReg(R13 (SP), 0x20001000)  returns 0x00 (0000ms, 18364ms total)
T3100 7021:673 JLINK_WriteReg(R14, 0x20000001)  returns 0x00 (0000ms, 18364ms total)
T3100 7021:673 JLINK_WriteReg(R15 (PC), 0x20000038)  returns 0x00 (0000ms, 18364ms total)
T3100 7021:673 JLINK_WriteReg(XPSR, 0x01000000)  returns 0x00 (0000ms, 18364ms total)
T3100 7021:673 JLINK_WriteReg(MSP, 0x20001000)  returns 0x00 (0000ms, 18364ms total)
T3100 7021:673 JLINK_WriteReg(PSP, 0x20001000)  returns 0x00 (0000ms, 18364ms total)
T3100 7021:673 JLINK_WriteReg(CFBP, 0x00000000)  returns 0x00 (0001ms, 18365ms total)
T3100 7021:674 JLINK_SetBPEx(Addr = 0x20000000, Type = 0xFFFFFFF2) -- CPU_ReadMem(2 bytes @ 0x20000000)  returns 0x00000001 (0000ms, 18365ms total)
T3100 7021:674 JLINK_Go() -- CPU_WriteMem(2 bytes @ 0x20000000) -- CPU_ReadMem(4 bytes @ 0xE0001000) -- CPU_WriteMem(4 bytes @ 0xE0002008) -- CPU_WriteMem(4 bytes @ 0xE000200C) -- CPU_WriteMem(4 bytes @ 0xE0002010) -- CPU_WriteMem(4 bytes @ 0xE0002014) -- CPU_WriteMem(4 bytes @ 0xE0002018) -- CPU_WriteMem(4 bytes @ 0xE000201C) -- CPU_WriteMem(4 bytes @ 0xE0001004) (0010ms, 18375ms total)
T3100 7021:684 JLINK_IsHalted() -- CPU_ReadMem(2 bytes @ 0x20000000)  returns TRUE (0006ms, 18381ms total)
T3100 7021:690 JLINK_ReadReg(R15 (PC))  returns 0x20000000 (0000ms, 18375ms total)
T3100 7021:690 JLINK_ClrBPEx(BPHandle = 0x00000001)  returns 0x00 (0000ms, 18375ms total)
T3100 7021:690 JLINK_ReadReg(R0)  returns 0x00000000 (0000ms, 18375ms total)
T3100 7021:691 JLINK_WriteReg(R0, 0x08000000)  returns 0x00 (0000ms, 18375ms total)
T3100 7021:691 JLINK_WriteReg(R1, 0x00B71B00)  returns 0x00 (0000ms, 18375ms total)
T3100 7021:691 JLINK_WriteReg(R2, 0x00000001)  returns 0x00 (0000ms, 18375ms total)
T3100 7021:691 JLINK_WriteReg(R3, 0x00000000)  returns 0x00 (0000ms, 18375ms total)
T3100 7021:691 JLINK_WriteReg(R4, 0x00000000)  returns 0x00 (0000ms, 18375ms total)
T3100 7021:691 JLINK_WriteReg(R5, 0x00000000)  returns 0x00 (0000ms, 18375ms total)
T3100 7021:691 JLINK_WriteReg(R6, 0x00000000)  returns 0x00 (0000ms, 18375ms total)
T3100 7021:691 JLINK_WriteReg(R7, 0x00000000)  returns 0x00 (0000ms, 18375ms total)
T3100 7021:691 JLINK_WriteReg(R8, 0x00000000)  returns 0x00 (0000ms, 18375ms total)
T3100 7021:691 JLINK_WriteReg(R9, 0x20000160)  returns 0x00 (0000ms, 18375ms total)
T3100 7021:691 JLINK_WriteReg(R10, 0x00000000)  returns 0x00 (0000ms, 18375ms total)
T3100 7021:691 JLINK_WriteReg(R11, 0x00000000)  returns 0x00 (0000ms, 18375ms total)
T3100 7021:691 JLINK_WriteReg(R12, 0x00000000)  returns 0x00 (0000ms, 18375ms total)
T3100 7021:691 JLINK_WriteReg(R13 (SP), 0x20001000)  returns 0x00 (0000ms, 18375ms total)
T3100 7021:691 JLINK_WriteReg(R14, 0x20000001)  returns 0x00 (0000ms, 18375ms total)
T3100 7021:691 JLINK_WriteReg(R15 (PC), 0x2000007C)  returns 0x00 (0000ms, 18375ms total)
T3100 7021:691 JLINK_WriteReg(XPSR, 0x01000000)  returns 0x00 (0000ms, 18375ms total)
T3100 7021:691 JLINK_WriteReg(MSP, 0x20001000)  returns 0x00 (0000ms, 18375ms total)
T3100 7021:691 JLINK_WriteReg(PSP, 0x20001000)  returns 0x00 (0000ms, 18375ms total)
T3100 7021:691 JLINK_WriteReg(CFBP, 0x00000000)  returns 0x00 (0000ms, 18375ms total)
T3100 7021:691 JLINK_SetBPEx(Addr = 0x20000000, Type = 0xFFFFFFF2)  returns 0x00000002 (0000ms, 18375ms total)
T3100 7021:691 JLINK_Go() -- CPU_ReadMem(4 bytes @ 0xE0001000) (0004ms, 18379ms total)
T3100 7021:695 JLINK_IsHalted()  returns FALSE (0001ms, 18380ms total)
T3100 7021:864 JLINK_IsHalted() -- CPU_ReadMem(2 bytes @ 0x20000000)  returns TRUE (0005ms, 18384ms total)
T3100 7021:869 JLINK_ReadReg(R15 (PC))  returns 0x20000000 (0000ms, 18379ms total)
T3100 7021:869 JLINK_ClrBPEx(BPHandle = 0x00000002)  returns 0x00 (0000ms, 18379ms total)
T3100 7021:869 JLINK_ReadReg(R0)  returns 0x00000000 (0000ms, 18379ms total)
T3100 7021:923 JLINK_WriteReg(R0, 0x00000001)  returns 0x00 (0000ms, 18379ms total)
T3100 7021:923 JLINK_WriteReg(R1, 0x00B71B00)  returns 0x00 (0000ms, 18379ms total)
T3100 7021:923 JLINK_WriteReg(R2, 0x00000001)  returns 0x00 (0001ms, 18380ms total)
T3100 7021:924 JLINK_WriteReg(R3, 0x00000000)  returns 0x00 (0000ms, 18380ms total)
T3100 7021:924 JLINK_WriteReg(R4, 0x00000000)  returns 0x00 (0000ms, 18380ms total)
T3100 7021:924 JLINK_WriteReg(R5, 0x00000000)  returns 0x00 (0000ms, 18380ms total)
T3100 7021:924 JLINK_WriteReg(R6, 0x00000000)  returns 0x00 (0000ms, 18380ms total)
T3100 7021:924 JLINK_WriteReg(R7, 0x00000000)  returns 0x00 (0000ms, 18380ms total)
T3100 7021:924 JLINK_WriteReg(R8, 0x00000000)  returns 0x00 (0000ms, 18380ms total)
T3100 7021:924 JLINK_WriteReg(R9, 0x20000160)  returns 0x00 (0000ms, 18380ms total)
T3100 7021:924 JLINK_WriteReg(R10, 0x00000000)  returns 0x00 (0000ms, 18380ms total)
T3100 7021:924 JLINK_WriteReg(R11, 0x00000000)  returns 0x00 (0000ms, 18380ms total)
T3100 7021:924 JLINK_WriteReg(R12, 0x00000000)  returns 0x00 (0000ms, 18380ms total)
T3100 7021:924 JLINK_WriteReg(R13 (SP), 0x20001000)  returns 0x00 (0000ms, 18380ms total)
T3100 7021:924 JLINK_WriteReg(R14, 0x20000001)  returns 0x00 (0000ms, 18380ms total)
T3100 7021:924 JLINK_WriteReg(R15 (PC), 0x2000006A)  returns 0x00 (0000ms, 18380ms total)
T3100 7021:924 JLINK_WriteReg(XPSR, 0x01000000)  returns 0x00 (0000ms, 18380ms total)
T3100 7021:924 JLINK_WriteReg(MSP, 0x20001000)  returns 0x00 (0000ms, 18380ms total)
T3100 7021:924 JLINK_WriteReg(PSP, 0x20001000)  returns 0x00 (0000ms, 18380ms total)
T3100 7021:924 JLINK_WriteReg(CFBP, 0x00000000)  returns 0x00 (0000ms, 18380ms total)
T3100 7021:924 JLINK_SetBPEx(Addr = 0x20000000, Type = 0xFFFFFFF2)  returns 0x00000003 (0000ms, 18380ms total)
T3100 7021:924 JLINK_Go() -- CPU_ReadMem(4 bytes @ 0xE0001000) (0004ms, 18384ms total)
T3100 7021:928 JLINK_IsHalted() -- CPU_ReadMem(2 bytes @ 0x20000000)  returns TRUE (0006ms, 18390ms total)
T3100 7021:934 JLINK_ReadReg(R15 (PC))  returns 0x20000000 (0000ms, 18384ms total)
T3100 7021:934 JLINK_ClrBPEx(BPHandle = 0x00000003)  returns 0x00 (0000ms, 18384ms total)
T3100 7021:934 JLINK_ReadReg(R0)  returns 0x00000000 (0000ms, 18384ms total)
T3100 7021:956 JLINK_WriteMem(0x20000000, 0x0164 Bytes, ...) - Data: 00 BE 0A E0 0D 78 2D 06 68 40 08 24 40 00 00 D3 ... -- CPU_WriteMem(356 bytes @ 0x20000000)  returns 0x164 (0004ms, 18388ms total)
T3100 7021:961 JLINK_WriteReg(R0, 0x08000000)  returns 0x00 (0000ms, 18388ms total)
T3100 7021:961 JLINK_WriteReg(R1, 0x00B71B00)  returns 0x00 (0000ms, 18388ms total)
T3100 7021:961 JLINK_WriteReg(R2, 0x00000002)  returns 0x00 (0000ms, 18388ms total)
T3100 7021:961 JLINK_WriteReg(R3, 0x00000000)  returns 0x00 (0000ms, 18388ms total)
T3100 7021:961 JLINK_WriteReg(R4, 0x00000000)  returns 0x00 (0000ms, 18388ms total)
T3100 7021:961 JLINK_WriteReg(R5, 0x00000000)  returns 0x00 (0000ms, 18388ms total)
T3100 7021:961 JLINK_WriteReg(R6, 0x00000000)  returns 0x00 (0000ms, 18388ms total)
T3100 7021:961 JLINK_WriteReg(R7, 0x00000000)  returns 0x00 (0000ms, 18388ms total)
T3100 7021:961 JLINK_WriteReg(R8, 0x00000000)  returns 0x00 (0000ms, 18388ms total)
T3100 7021:961 JLINK_WriteReg(R9, 0x20000160)  returns 0x00 (0000ms, 18388ms total)
T3100 7021:961 JLINK_WriteReg(R10, 0x00000000)  returns 0x00 (0000ms, 18388ms total)
T3100 7021:961 JLINK_WriteReg(R11, 0x00000000)  returns 0x00 (0000ms, 18388ms total)
T3100 7021:961 JLINK_WriteReg(R12, 0x00000000)  returns 0x00 (0000ms, 18388ms total)
T3100 7021:961 JLINK_WriteReg(R13 (SP), 0x20001000)  returns 0x00 (0000ms, 18388ms total)
T3100 7021:961 JLINK_WriteReg(R14, 0x20000001)  returns 0x00 (0000ms, 18388ms total)
T3100 7021:961 JLINK_WriteReg(R15 (PC), 0x20000038)  returns 0x00 (0000ms, 18388ms total)
T3100 7021:961 JLINK_WriteReg(XPSR, 0x01000000)  returns 0x00 (0000ms, 18388ms total)
T3100 7021:961 JLINK_WriteReg(MSP, 0x20001000)  returns 0x00 (0000ms, 18388ms total)
T3100 7021:962 JLINK_WriteReg(PSP, 0x20001000)  returns 0x00 (0000ms, 18388ms total)
T3100 7021:962 JLINK_WriteReg(CFBP, 0x00000000)  returns 0x00 (0000ms, 18388ms total)
T3100 7021:962 JLINK_SetBPEx(Addr = 0x20000000, Type = 0xFFFFFFF2) -- CPU_ReadMem(2 bytes @ 0x20000000)  returns 0x00000004 (0001ms, 18389ms total)
T3100 7021:963 JLINK_Go() -- CPU_WriteMem(2 bytes @ 0x20000000) -- CPU_ReadMem(4 bytes @ 0xE0001000) (0004ms, 18393ms total)
T3100 7021:967 JLINK_IsHalted() -- CPU_ReadMem(2 bytes @ 0x20000000)  returns TRUE (0006ms, 18399ms total)
T3100 7021:973 JLINK_ReadReg(R15 (PC))  returns 0x20000000 (0000ms, 18393ms total)
T3100 7021:973 JLINK_ClrBPEx(BPHandle = 0x00000004)  returns 0x00 (0000ms, 18393ms total)
T3100 7021:973 JLINK_ReadReg(R0)  returns 0x00000000 (0000ms, 18393ms total)
T3100 7021:973 JLINK_WriteMem(0x20000164, 0x029C Bytes, ...) - Data: C8 2B 00 20 45 01 00 08 E5 13 00 08 0F 02 00 08 ... -- CPU_WriteMem(668 bytes @ 0x20000164)  returns 0x29C (0008ms, 18401ms total)
T3100 7021:981 JLINK_WriteMem(0x20000400, 0x0164 Bytes, ...) - Data: FF F7 F0 FF 20 46 10 BD 42 1E 12 F8 01 3F 00 2B ... -- CPU_WriteMem(356 bytes @ 0x20000400)  returns 0x164 (0004ms, 18405ms total)
T3100 7021:985 JLINK_WriteReg(R0, 0x08000000)  returns 0x00 (0000ms, 18405ms total)
T3100 7021:985 JLINK_WriteReg(R1, 0x00000400)  returns 0x00 (0000ms, 18405ms total)
T3100 7021:985 JLINK_WriteReg(R2, 0x20000164)  returns 0x00 (0000ms, 18405ms total)
T3100 7021:985 JLINK_WriteReg(R3, 0x00000000)  returns 0x00 (0000ms, 18405ms total)
T3100 7021:985 JLINK_WriteReg(R4, 0x00000000)  returns 0x00 (0000ms, 18405ms total)
T3100 7021:985 JLINK_WriteReg(R5, 0x00000000)  returns 0x00 (0001ms, 18406ms total)
T3100 7021:986 JLINK_WriteReg(R6, 0x00000000)  returns 0x00 (0000ms, 18406ms total)
T3100 7021:987 JLINK_WriteReg(R7, 0x00000000)  returns 0x00 (0000ms, 18406ms total)
T3100 7021:987 JLINK_WriteReg(R8, 0x00000000)  returns 0x00 (0000ms, 18406ms total)
T3100 7021:987 JLINK_WriteReg(R9, 0x20000160)  returns 0x00 (0000ms, 18406ms total)
T3100 7021:987 JLINK_WriteReg(R10, 0x00000000)  returns 0x00 (0000ms, 18406ms total)
T3100 7021:987 JLINK_WriteReg(R11, 0x00000000)  returns 0x00 (0000ms, 18406ms total)
T3100 7021:987 JLINK_WriteReg(R12, 0x00000000)  returns 0x00 (0000ms, 18406ms total)
T3100 7021:987 JLINK_WriteReg(R13 (SP), 0x20001000)  returns 0x00 (0000ms, 18406ms total)
T3100 7021:987 JLINK_WriteReg(R14, 0x20000001)  returns 0x00 (0000ms, 18406ms total)
T3100 7021:987 JLINK_WriteReg(R15 (PC), 0x200000F4)  returns 0x00 (0000ms, 18406ms total)
T3100 7021:987 JLINK_WriteReg(XPSR, 0x01000000)  returns 0x00 (0000ms, 18406ms total)
T3100 7021:987 JLINK_WriteReg(MSP, 0x20001000)  returns 0x00 (0000ms, 18406ms total)
T3100 7021:987 JLINK_WriteReg(PSP, 0x20001000)  returns 0x00 (0000ms, 18406ms total)
T3100 7021:987 JLINK_WriteReg(CFBP, 0x00000000)  returns 0x00 (0000ms, 18406ms total)
T3100 7021:987 JLINK_SetBPEx(Addr = 0x20000000, Type = 0xFFFFFFF2)  returns 0x00000005 (0001ms, 18407ms total)
T3100 7021:988 JLINK_Go() -- CPU_ReadMem(4 bytes @ 0xE0001000) (0003ms, 18410ms total)
T3100 7021:991 JLINK_IsHalted()  returns FALSE (0001ms, 18411ms total)
T3100 7022:002 JLINK_IsHalted()  returns FALSE (0000ms, 18410ms total)
T3100 7022:004 JLINK_IsHalted()  returns FALSE (0000ms, 18410ms total)
T3100 7022:006 JLINK_IsHalted()  returns FALSE (0000ms, 18410ms total)
T3100 7022:008 JLINK_IsHalted()  returns FALSE (0000ms, 18410ms total)
T3100 7022:011 JLINK_IsHalted()  returns FALSE (0000ms, 18410ms total)
T3100 7022:013 JLINK_IsHalted()  returns FALSE (0001ms, 18411ms total)
T3100 7022:016 JLINK_IsHalted()  returns FALSE (0000ms, 18411ms total)
T3100 7022:019 JLINK_IsHalted()  returns FALSE (0000ms, 18411ms total)
T3100 7022:021 JLINK_IsHalted()  returns FALSE (0000ms, 18411ms total)
T3100 7022:024 JLINK_IsHalted() -- CPU_ReadMem(2 bytes @ 0x20000000)  returns TRUE (0005ms, 18416ms total)
T3100 7022:029 JLINK_ReadReg(R15 (PC))  returns 0x20000000 (0000ms, 18411ms total)
T3100 7022:029 JLINK_ClrBPEx(BPHandle = 0x00000005)  returns 0x00 (0000ms, 18411ms total)
T3100 7022:029 JLINK_ReadReg(R0)  returns 0x00000000 (0000ms, 18411ms total)
T3100 7022:030 JLINK_WriteMem(0x20000164, 0x029C Bytes, ...) - Data: 03 46 0C 46 00 25 00 21 00 27 00 26 0A 2A 01 DD ... -- CPU_WriteMem(668 bytes @ 0x20000164)  returns 0x29C (0008ms, 18419ms total)
T3100 7022:038 JLINK_WriteMem(0x20000400, 0x0164 Bytes, ...) - Data: 06 F1 08 43 60 63 22 E0 0D 2A 0F DA 20 6B D6 1F ... -- CPU_WriteMem(356 bytes @ 0x20000400)  returns 0x164 (0004ms, 18423ms total)
T3100 7022:042 JLINK_WriteReg(R0, 0x08000400)  returns 0x00 (0000ms, 18423ms total)
T3100 7022:042 JLINK_WriteReg(R1, 0x00000400)  returns 0x00 (0000ms, 18423ms total)
T3100 7022:042 JLINK_WriteReg(R2, 0x20000164)  returns 0x00 (0000ms, 18423ms total)
T3100 7022:042 JLINK_WriteReg(R3, 0x00000000)  returns 0x00 (0000ms, 18423ms total)
T3100 7022:042 JLINK_WriteReg(R4, 0x00000000)  returns 0x00 (0000ms, 18423ms total)
T3100 7022:042 JLINK_WriteReg(R5, 0x00000000)  returns 0x00 (0000ms, 18423ms total)
T3100 7022:042 JLINK_WriteReg(R6, 0x00000000)  returns 0x00 (0000ms, 18423ms total)
T3100 7022:042 JLINK_WriteReg(R7, 0x00000000)  returns 0x00 (0000ms, 18423ms total)
T3100 7022:042 JLINK_WriteReg(R8, 0x00000000)  returns 0x00 (0000ms, 18423ms total)
T3100 7022:042 JLINK_WriteReg(R9, 0x20000160)  returns 0x00 (0000ms, 18423ms total)
T3100 7022:042 JLINK_WriteReg(R10, 0x00000000)  returns 0x00 (0000ms, 18423ms total)
T3100 7022:042 JLINK_WriteReg(R11, 0x00000000)  returns 0x00 (0001ms, 18424ms total)
T3100 7022:043 JLINK_WriteReg(R12, 0x00000000)  returns 0x00 (0000ms, 18424ms total)
T3100 7022:043 JLINK_WriteReg(R13 (SP), 0x20001000)  returns 0x00 (0000ms, 18424ms total)
T3100 7022:043 JLINK_WriteReg(R14, 0x20000001)  returns 0x00 (0000ms, 18424ms total)
T3100 7022:043 JLINK_WriteReg(R15 (PC), 0x200000F4)  returns 0x00 (0000ms, 18424ms total)
T3100 7022:043 JLINK_WriteReg(XPSR, 0x01000000)  returns 0x00 (0000ms, 18424ms total)
T3100 7022:043 JLINK_WriteReg(MSP, 0x20001000)  returns 0x00 (0000ms, 18424ms total)
T3100 7022:043 JLINK_WriteReg(PSP, 0x20001000)  returns 0x00 (0000ms, 18424ms total)
T3100 7022:043 JLINK_WriteReg(CFBP, 0x00000000)  returns 0x00 (0000ms, 18424ms total)
T3100 7022:043 JLINK_SetBPEx(Addr = 0x20000000, Type = 0xFFFFFFF2)  returns 0x00000006 (0000ms, 18424ms total)
T3100 7022:043 JLINK_Go() -- CPU_ReadMem(4 bytes @ 0xE0001000) (0003ms, 18427ms total)
T3100 7022:046 JLINK_IsHalted()  returns FALSE (0001ms, 18428ms total)
T3100 7022:049 JLINK_IsHalted()  returns FALSE (0000ms, 18427ms total)
T3100 7022:051 JLINK_IsHalted()  returns FALSE (0000ms, 18427ms total)
T3100 7022:053 JLINK_IsHalted()  returns FALSE (0000ms, 18427ms total)
T3100 7022:055 JLINK_IsHalted()  returns FALSE (0000ms, 18427ms total)
T3100 7022:057 JLINK_IsHalted()  returns FALSE (0000ms, 18427ms total)
T3100 7022:059 JLINK_IsHalted()  returns FALSE (0000ms, 18427ms total)
T3100 7022:061 JLINK_IsHalted()  returns FALSE (0000ms, 18427ms total)
T3100 7022:063 JLINK_IsHalted()  returns FALSE (0000ms, 18427ms total)
T3100 7022:065 JLINK_IsHalted()  returns FALSE (0000ms, 18427ms total)
T3100 7022:067 JLINK_IsHalted()  returns FALSE (0000ms, 18427ms total)
T3100 7022:069 JLINK_IsHalted()  returns FALSE (0000ms, 18427ms total)
T3100 7022:071 JLINK_IsHalted()  returns FALSE (0000ms, 18427ms total)
T3100 7022:073 JLINK_IsHalted()  returns FALSE (0000ms, 18427ms total)
T3100 7022:075 JLINK_IsHalted()  returns FALSE (0000ms, 18427ms total)
T3100 7022:077 JLINK_IsHalted() -- CPU_ReadMem(2 bytes @ 0x20000000)  returns TRUE (0005ms, 18432ms total)
T3100 7022:082 JLINK_ReadReg(R15 (PC))  returns 0x20000000 (0000ms, 18427ms total)
T3100 7022:082 JLINK_ClrBPEx(BPHandle = 0x00000006)  returns 0x00 (0000ms, 18427ms total)
T3100 7022:082 JLINK_ReadReg(R0)  returns 0x00000000 (0000ms, 18427ms total)
T3100 7022:083 JLINK_WriteMem(0x20000164, 0x029C Bytes, ...) - Data: 7A 70 08 81 00 20 88 72 02 20 C8 72 01 20 08 73 ... -- CPU_WriteMem(668 bytes @ 0x20000164)  returns 0x29C (0008ms, 18435ms total)
T3100 7022:091 JLINK_WriteMem(0x20000400, 0x0164 Bytes, ...) - Data: 00 08 01 40 00 2C 01 40 10 B5 02 20 00 F0 F6 F9 ... -- CPU_WriteMem(356 bytes @ 0x20000400)  returns 0x164 (0004ms, 18439ms total)
T3100 7022:095 JLINK_WriteReg(R0, 0x08000800)  returns 0x00 (0000ms, 18439ms total)
T3100 7022:095 JLINK_WriteReg(R1, 0x00000400)  returns 0x00 (0000ms, 18439ms total)
T3100 7022:095 JLINK_WriteReg(R2, 0x20000164)  returns 0x00 (0000ms, 18439ms total)
T3100 7022:095 JLINK_WriteReg(R3, 0x00000000)  returns 0x00 (0000ms, 18439ms total)
T3100 7022:095 JLINK_WriteReg(R4, 0x00000000)  returns 0x00 (0000ms, 18439ms total)
T3100 7022:095 JLINK_WriteReg(R5, 0x00000000)  returns 0x00 (0000ms, 18439ms total)
T3100 7022:095 JLINK_WriteReg(R6, 0x00000000)  returns 0x00 (0000ms, 18439ms total)
T3100 7022:095 JLINK_WriteReg(R7, 0x00000000)  returns 0x00 (0000ms, 18439ms total)
T3100 7022:095 JLINK_WriteReg(R8, 0x00000000)  returns 0x00 (0001ms, 18440ms total)
T3100 7022:096 JLINK_WriteReg(R9, 0x20000160)  returns 0x00 (0000ms, 18440ms total)
T3100 7022:096 JLINK_WriteReg(R10, 0x00000000)  returns 0x00 (0000ms, 18440ms total)
T3100 7022:096 JLINK_WriteReg(R11, 0x00000000)  returns 0x00 (0000ms, 18440ms total)
T3100 7022:096 JLINK_WriteReg(R12, 0x00000000)  returns 0x00 (0000ms, 18440ms total)
T3100 7022:096 JLINK_WriteReg(R13 (SP), 0x20001000)  returns 0x00 (0000ms, 18440ms total)
T3100 7022:096 JLINK_WriteReg(R14, 0x20000001)  returns 0x00 (0000ms, 18440ms total)
T3100 7022:096 JLINK_WriteReg(R15 (PC), 0x200000F4)  returns 0x00 (0000ms, 18440ms total)
T3100 7022:096 JLINK_WriteReg(XPSR, 0x01000000)  returns 0x00 (0000ms, 18440ms total)
T3100 7022:096 JLINK_WriteReg(MSP, 0x20001000)  returns 0x00 (0000ms, 18440ms total)
T3100 7022:096 JLINK_WriteReg(PSP, 0x20001000)  returns 0x00 (0000ms, 18440ms total)
T3100 7022:096 JLINK_WriteReg(CFBP, 0x00000000)  returns 0x00 (0000ms, 18440ms total)
T3100 7022:096 JLINK_SetBPEx(Addr = 0x20000000, Type = 0xFFFFFFF2)  returns 0x00000007 (0000ms, 18440ms total)
T3100 7022:096 JLINK_Go() -- CPU_ReadMem(4 bytes @ 0xE0001000) (0004ms, 18444ms total)
T3100 7022:100 JLINK_IsHalted()  returns FALSE (0001ms, 18445ms total)
T3100 7022:114 JLINK_IsHalted()  returns FALSE (0000ms, 18444ms total)
T3100 7022:122 JLINK_IsHalted()  returns FALSE (0001ms, 18445ms total)
T3100 7022:125 JLINK_IsHalted()  returns FALSE (0000ms, 18444ms total)
T3100 7022:127 JLINK_IsHalted()  returns FALSE (0000ms, 18444ms total)
T3100 7022:129 JLINK_IsHalted()  returns FALSE (0000ms, 18444ms total)
T3100 7022:131 JLINK_IsHalted() -- CPU_ReadMem(2 bytes @ 0x20000000)  returns TRUE (0005ms, 18449ms total)
T3100 7022:136 JLINK_ReadReg(R15 (PC))  returns 0x20000000 (0000ms, 18444ms total)
T3100 7022:136 JLINK_ClrBPEx(BPHandle = 0x00000007)  returns 0x00 (0000ms, 18444ms total)
T3100 7022:136 JLINK_ReadReg(R0)  returns 0x00000000 (0000ms, 18444ms total)
T3100 7022:138 JLINK_WriteMem(0x20000164, 0x029C Bytes, ...) - Data: 4E D1 3C 48 00 88 01 28 4A DB 4F F4 F8 70 01 F0 ... -- CPU_WriteMem(668 bytes @ 0x20000164)  returns 0x29C (0008ms, 18453ms total)
T3100 7022:146 JLINK_WriteMem(0x20000400, 0x0164 Bytes, ...) - Data: 00 22 01 F0 80 53 13 B1 05 4B 1A 68 01 E0 05 4B ... -- CPU_WriteMem(356 bytes @ 0x20000400)  returns 0x164 (0004ms, 18457ms total)
T3100 7022:150 JLINK_WriteReg(R0, 0x08000C00)  returns 0x00 (0000ms, 18457ms total)
T3100 7022:150 JLINK_WriteReg(R1, 0x00000400)  returns 0x00 (0000ms, 18457ms total)
T3100 7022:150 JLINK_WriteReg(R2, 0x20000164)  returns 0x00 (0000ms, 18457ms total)
T3100 7022:150 JLINK_WriteReg(R3, 0x00000000)  returns 0x00 (0000ms, 18457ms total)
T3100 7022:150 JLINK_WriteReg(R4, 0x00000000)  returns 0x00 (0000ms, 18457ms total)
T3100 7022:150 JLINK_WriteReg(R5, 0x00000000)  returns 0x00 (0000ms, 18457ms total)
T3100 7022:150 JLINK_WriteReg(R6, 0x00000000)  returns 0x00 (0000ms, 18457ms total)
T3100 7022:150 JLINK_WriteReg(R7, 0x00000000)  returns 0x00 (0000ms, 18457ms total)
T3100 7022:150 JLINK_WriteReg(R8, 0x00000000)  returns 0x00 (0000ms, 18457ms total)
T3100 7022:150 JLINK_WriteReg(R9, 0x20000160)  returns 0x00 (0000ms, 18457ms total)
T3100 7022:150 JLINK_WriteReg(R10, 0x00000000)  returns 0x00 (0000ms, 18457ms total)
T3100 7022:150 JLINK_WriteReg(R11, 0x00000000)  returns 0x00 (0000ms, 18457ms total)
T3100 7022:150 JLINK_WriteReg(R12, 0x00000000)  returns 0x00 (0000ms, 18457ms total)
T3100 7022:150 JLINK_WriteReg(R13 (SP), 0x20001000)  returns 0x00 (0000ms, 18457ms total)
T3100 7022:150 JLINK_WriteReg(R14, 0x20000001)  returns 0x00 (0000ms, 18457ms total)
T3100 7022:151 JLINK_WriteReg(R15 (PC), 0x200000F4)  returns 0x00 (0000ms, 18458ms total)
T3100 7022:151 JLINK_WriteReg(XPSR, 0x01000000)  returns 0x00 (0000ms, 18458ms total)
T3100 7022:151 JLINK_WriteReg(MSP, 0x20001000)  returns 0x00 (0000ms, 18458ms total)
T3100 7022:151 JLINK_WriteReg(PSP, 0x20001000)  returns 0x00 (0000ms, 18458ms total)
T3100 7022:151 JLINK_WriteReg(CFBP, 0x00000000)  returns 0x00 (0000ms, 18458ms total)
T3100 7022:151 JLINK_SetBPEx(Addr = 0x20000000, Type = 0xFFFFFFF2)  returns 0x00000008 (0000ms, 18458ms total)
T3100 7022:151 JLINK_Go() -- CPU_ReadMem(4 bytes @ 0xE0001000) (0003ms, 18461ms total)
T3100 7022:154 JLINK_IsHalted()  returns FALSE (0001ms, 18462ms total)
T3100 7022:163 JLINK_IsHalted()  returns FALSE (0000ms, 18461ms total)
T3100 7022:165 JLINK_IsHalted()  returns FALSE (0000ms, 18461ms total)
T3100 7022:167 JLINK_IsHalted()  returns FALSE (0000ms, 18461ms total)
T3100 7022:169 JLINK_IsHalted()  returns FALSE (0000ms, 18461ms total)
T3100 7022:171 JLINK_IsHalted()  returns FALSE (0000ms, 18461ms total)
T3100 7022:173 JLINK_IsHalted()  returns FALSE (0000ms, 18461ms total)
T3100 7022:176 JLINK_IsHalted()  returns FALSE (0000ms, 18461ms total)
T3100 7022:179 JLINK_IsHalted()  returns FALSE (0000ms, 18461ms total)
T3100 7022:181 JLINK_IsHalted()  returns FALSE (0000ms, 18461ms total)
T3100 7022:183 JLINK_IsHalted()  returns FALSE (0000ms, 18461ms total)
T3100 7022:185 JLINK_IsHalted() -- CPU_ReadMem(2 bytes @ 0x20000000)  returns TRUE (0005ms, 18466ms total)
T3100 7022:190 JLINK_ReadReg(R15 (PC))  returns 0x20000000 (0000ms, 18461ms total)
T3100 7022:190 JLINK_ClrBPEx(BPHandle = 0x00000008)  returns 0x00 (0000ms, 18461ms total)
T3100 7022:190 JLINK_ReadReg(R0)  returns 0x00000000 (0000ms, 18461ms total)
T3100 7022:191 JLINK_WriteMem(0x20000164, 0x029C Bytes, ...) - Data: 08 4C 8D 10 44 F8 25 30 23 46 8C 10 53 F8 24 30 ... -- CPU_WriteMem(668 bytes @ 0x20000164)  returns 0x29C (0007ms, 18468ms total)
T3100 7022:198 JLINK_WriteMem(0x20000400, 0x0164 Bytes, ...) - Data: 1C B5 00 BF 00 BF 00 24 00 25 00 26 00 20 01 90 ... -- CPU_WriteMem(356 bytes @ 0x20000400)  returns 0x164 (0005ms, 18473ms total)
T3100 7022:203 JLINK_WriteReg(R0, 0x08001000)  returns 0x00 (0000ms, 18473ms total)
T3100 7022:203 JLINK_WriteReg(R1, 0x00000400)  returns 0x00 (0000ms, 18473ms total)
T3100 7022:203 JLINK_WriteReg(R2, 0x20000164)  returns 0x00 (0000ms, 18473ms total)
T3100 7022:203 JLINK_WriteReg(R3, 0x00000000)  returns 0x00 (0000ms, 18473ms total)
T3100 7022:203 JLINK_WriteReg(R4, 0x00000000)  returns 0x00 (0000ms, 18473ms total)
T3100 7022:203 JLINK_WriteReg(R5, 0x00000000)  returns 0x00 (0000ms, 18473ms total)
T3100 7022:203 JLINK_WriteReg(R6, 0x00000000)  returns 0x00 (0000ms, 18473ms total)
T3100 7022:203 JLINK_WriteReg(R7, 0x00000000)  returns 0x00 (0000ms, 18473ms total)
T3100 7022:203 JLINK_WriteReg(R8, 0x00000000)  returns 0x00 (0000ms, 18473ms total)
T3100 7022:203 JLINK_WriteReg(R9, 0x20000160)  returns 0x00 (0000ms, 18473ms total)
T3100 7022:203 JLINK_WriteReg(R10, 0x00000000)  returns 0x00 (0000ms, 18473ms total)
T3100 7022:203 JLINK_WriteReg(R11, 0x00000000)  returns 0x00 (0000ms, 18473ms total)
T3100 7022:203 JLINK_WriteReg(R12, 0x00000000)  returns 0x00 (0000ms, 18473ms total)
T3100 7022:203 JLINK_WriteReg(R13 (SP), 0x20001000)  returns 0x00 (0000ms, 18473ms total)
T3100 7022:203 JLINK_WriteReg(R14, 0x20000001)  returns 0x00 (0000ms, 18473ms total)
T3100 7022:203 JLINK_WriteReg(R15 (PC), 0x200000F4)  returns 0x00 (0000ms, 18473ms total)
T3100 7022:203 JLINK_WriteReg(XPSR, 0x01000000)  returns 0x00 (0000ms, 18473ms total)
T3100 7022:203 JLINK_WriteReg(MSP, 0x20001000)  returns 0x00 (0000ms, 18473ms total)
T3100 7022:203 JLINK_WriteReg(PSP, 0x20001000)  returns 0x00 (0000ms, 18473ms total)
T3100 7022:203 JLINK_WriteReg(CFBP, 0x00000000)  returns 0x00 (0000ms, 18473ms total)
T3100 7022:203 JLINK_SetBPEx(Addr = 0x20000000, Type = 0xFFFFFFF2)  returns 0x00000009 (0000ms, 18473ms total)
T3100 7022:203 JLINK_Go() -- CPU_ReadMem(4 bytes @ 0xE0001000) (0004ms, 18477ms total)
T3100 7022:207 JLINK_IsHalted()  returns FALSE (0001ms, 18478ms total)
T3100 7022:214 JLINK_IsHalted()  returns FALSE (0000ms, 18477ms total)
T3100 7022:216 JLINK_IsHalted()  returns FALSE (0000ms, 18477ms total)
T3100 7022:218 JLINK_IsHalted()  returns FALSE (0000ms, 18477ms total)
T3100 7022:220 JLINK_IsHalted()  returns FALSE (0000ms, 18477ms total)
T3100 7022:222 JLINK_IsHalted()  returns FALSE (0000ms, 18477ms total)
T3100 7022:224 JLINK_IsHalted()  returns FALSE (0000ms, 18477ms total)
T3100 7022:226 JLINK_IsHalted()  returns FALSE (0000ms, 18477ms total)
T3100 7022:228 JLINK_IsHalted()  returns FALSE (0000ms, 18477ms total)
T3100 7022:230 JLINK_IsHalted()  returns FALSE (0000ms, 18477ms total)
T3100 7022:232 JLINK_IsHalted()  returns FALSE (0000ms, 18477ms total)
T3100 7022:234 JLINK_IsHalted()  returns FALSE (0000ms, 18477ms total)
T3100 7022:236 JLINK_IsHalted()  returns FALSE (0000ms, 18477ms total)
T3100 7022:238 JLINK_IsHalted() -- CPU_ReadMem(2 bytes @ 0x20000000)  returns TRUE (0005ms, 18482ms total)
T3100 7022:243 JLINK_ReadReg(R15 (PC))  returns 0x20000000 (0000ms, 18477ms total)
T3100 7022:243 JLINK_ClrBPEx(BPHandle = 0x00000009)  returns 0x00 (0000ms, 18477ms total)
T3100 7022:243 JLINK_ReadReg(R0)  returns 0x00000000 (0000ms, 18477ms total)
T3100 7022:244 JLINK_WriteMem(0x20000164, 0x029C Bytes, ...) - Data: 21 0A C1 F1 04 03 CA 40 44 78 04 FA 03 F1 84 78 ... -- CPU_WriteMem(668 bytes @ 0x20000164)  returns 0x29C (0007ms, 18484ms total)
T3100 7022:251 JLINK_WriteMem(0x20000400, 0x0164 Bytes, ...) - Data: 17 4D 05 60 00 BF 00 BF 14 4D 6D 68 05 F0 F0 01 ... -- CPU_WriteMem(356 bytes @ 0x20000400)  returns 0x164 (0005ms, 18489ms total)
T3100 7022:256 JLINK_WriteReg(R0, 0x08001400)  returns 0x00 (0000ms, 18489ms total)
T3100 7022:256 JLINK_WriteReg(R1, 0x00000400)  returns 0x00 (0000ms, 18489ms total)
T3100 7022:256 JLINK_WriteReg(R2, 0x20000164)  returns 0x00 (0000ms, 18489ms total)
T3100 7022:256 JLINK_WriteReg(R3, 0x00000000)  returns 0x00 (0000ms, 18489ms total)
T3100 7022:256 JLINK_WriteReg(R4, 0x00000000)  returns 0x00 (0000ms, 18489ms total)
T3100 7022:256 JLINK_WriteReg(R5, 0x00000000)  returns 0x00 (0000ms, 18489ms total)
T3100 7022:256 JLINK_WriteReg(R6, 0x00000000)  returns 0x00 (0000ms, 18489ms total)
T3100 7022:256 JLINK_WriteReg(R7, 0x00000000)  returns 0x00 (0000ms, 18489ms total)
T3100 7022:256 JLINK_WriteReg(R8, 0x00000000)  returns 0x00 (0000ms, 18489ms total)
T3100 7022:256 JLINK_WriteReg(R9, 0x20000160)  returns 0x00 (0000ms, 18489ms total)
T3100 7022:256 JLINK_WriteReg(R10, 0x00000000)  returns 0x00 (0000ms, 18489ms total)
T3100 7022:256 JLINK_WriteReg(R11, 0x00000000)  returns 0x00 (0000ms, 18489ms total)
T3100 7022:256 JLINK_WriteReg(R12, 0x00000000)  returns 0x00 (0000ms, 18489ms total)
T3100 7022:256 JLINK_WriteReg(R13 (SP), 0x20001000)  returns 0x00 (0000ms, 18489ms total)
T3100 7022:256 JLINK_WriteReg(R14, 0x20000001)  returns 0x00 (0000ms, 18489ms total)
T3100 7022:256 JLINK_WriteReg(R15 (PC), 0x200000F4)  returns 0x00 (0000ms, 18489ms total)
T3100 7022:256 JLINK_WriteReg(XPSR, 0x01000000)  returns 0x00 (0000ms, 18489ms total)
T3100 7022:256 JLINK_WriteReg(MSP, 0x20001000)  returns 0x00 (0000ms, 18489ms total)
T3100 7022:256 JLINK_WriteReg(PSP, 0x20001000)  returns 0x00 (0000ms, 18489ms total)
T3100 7022:256 JLINK_WriteReg(CFBP, 0x00000000)  returns 0x00 (0000ms, 18489ms total)
T3100 7022:256 JLINK_SetBPEx(Addr = 0x20000000, Type = 0xFFFFFFF2)  returns 0x0000000A (0000ms, 18489ms total)
T3100 7022:256 JLINK_Go() -- CPU_ReadMem(4 bytes @ 0xE0001000) (0003ms, 18492ms total)
T3100 7022:259 JLINK_IsHalted()  returns FALSE (0001ms, 18493ms total)
T3100 7022:263 JLINK_IsHalted()  returns FALSE (0000ms, 18492ms total)
T3100 7022:268 JLINK_IsHalted()  returns FALSE (0000ms, 18492ms total)
T3100 7022:270 JLINK_IsHalted()  returns FALSE (0000ms, 18492ms total)
T3100 7022:273 JLINK_IsHalted()  returns FALSE (0000ms, 18492ms total)
T3100 7022:275 JLINK_IsHalted()  returns FALSE (0000ms, 18492ms total)
T3100 7022:277 JLINK_IsHalted()  returns FALSE (0000ms, 18492ms total)
T3100 7022:279 JLINK_IsHalted()  returns FALSE (0000ms, 18492ms total)
T3100 7022:281 JLINK_IsHalted()  returns FALSE (0000ms, 18492ms total)
T3100 7022:284 JLINK_IsHalted()  returns FALSE (0000ms, 18492ms total)
T3100 7022:296 JLINK_IsHalted() -- CPU_ReadMem(2 bytes @ 0x20000000)  returns TRUE (0006ms, 18498ms total)
T3100 7022:302 JLINK_ReadReg(R15 (PC))  returns 0x20000000 (0000ms, 18492ms total)
T3100 7022:302 JLINK_ClrBPEx(BPHandle = 0x0000000A)  returns 0x00 (0000ms, 18492ms total)
T3100 7022:302 JLINK_ReadReg(R0)  returns 0x00000000 (0000ms, 18492ms total)
T3100 7022:303 JLINK_WriteMem(0x20000164, 0x029C Bytes, ...) - Data: F3 F8 03 F0 D3 F8 10 BD 10 B5 00 21 00 20 00 22 ... -- CPU_WriteMem(668 bytes @ 0x20000164)  returns 0x29C (0007ms, 18499ms total)
T3100 7022:310 JLINK_WriteMem(0x20000400, 0x0164 Bytes, ...) - Data: 9D FD 7C E0 44 48 84 42 08 D1 01 21 40 14 FF F7 ... -- CPU_WriteMem(356 bytes @ 0x20000400)  returns 0x164 (0004ms, 18503ms total)
T3100 7022:314 JLINK_WriteReg(R0, 0x08001800)  returns 0x00 (0000ms, 18503ms total)
T3100 7022:314 JLINK_WriteReg(R1, 0x00000400)  returns 0x00 (0001ms, 18504ms total)
T3100 7022:315 JLINK_WriteReg(R2, 0x20000164)  returns 0x00 (0000ms, 18504ms total)
T3100 7022:315 JLINK_WriteReg(R3, 0x00000000)  returns 0x00 (0000ms, 18504ms total)
T3100 7022:315 JLINK_WriteReg(R4, 0x00000000)  returns 0x00 (0000ms, 18504ms total)
T3100 7022:315 JLINK_WriteReg(R5, 0x00000000)  returns 0x00 (0000ms, 18504ms total)
T3100 7022:315 JLINK_WriteReg(R6, 0x00000000)  returns 0x00 (0000ms, 18504ms total)
T3100 7022:315 JLINK_WriteReg(R7, 0x00000000)  returns 0x00 (0000ms, 18504ms total)
T3100 7022:315 JLINK_WriteReg(R8, 0x00000000)  returns 0x00 (0000ms, 18504ms total)
T3100 7022:315 JLINK_WriteReg(R9, 0x20000160)  returns 0x00 (0000ms, 18504ms total)
T3100 7022:315 JLINK_WriteReg(R10, 0x00000000)  returns 0x00 (0000ms, 18504ms total)
T3100 7022:315 JLINK_WriteReg(R11, 0x00000000)  returns 0x00 (0000ms, 18504ms total)
T3100 7022:315 JLINK_WriteReg(R12, 0x00000000)  returns 0x00 (0000ms, 18504ms total)
T3100 7022:315 JLINK_WriteReg(R13 (SP), 0x20001000)  returns 0x00 (0000ms, 18504ms total)
T3100 7022:315 JLINK_WriteReg(R14, 0x20000001)  returns 0x00 (0000ms, 18504ms total)
T3100 7022:315 JLINK_WriteReg(R15 (PC), 0x200000F4)  returns 0x00 (0000ms, 18504ms total)
T3100 7022:315 JLINK_WriteReg(XPSR, 0x01000000)  returns 0x00 (0000ms, 18504ms total)
T3100 7022:315 JLINK_WriteReg(MSP, 0x20001000)  returns 0x00 (0000ms, 18504ms total)
T3100 7022:315 JLINK_WriteReg(PSP, 0x20001000)  returns 0x00 (0000ms, 18504ms total)
T3100 7022:315 JLINK_WriteReg(CFBP, 0x00000000)  returns 0x00 (0000ms, 18504ms total)
T3100 7022:315 JLINK_SetBPEx(Addr = 0x20000000, Type = 0xFFFFFFF2)  returns 0x0000000B (0000ms, 18504ms total)
T3100 7022:315 JLINK_Go() -- CPU_ReadMem(4 bytes @ 0xE0001000) (0004ms, 18508ms total)
T3100 7022:319 JLINK_IsHalted()  returns FALSE (0000ms, 18508ms total)
T3100 7022:325 JLINK_IsHalted()  returns FALSE (0001ms, 18509ms total)
T3100 7022:327 JLINK_IsHalted()  returns FALSE (0001ms, 18509ms total)
T3100 7022:334 JLINK_IsHalted()  returns FALSE (0000ms, 18508ms total)
T3100 7022:336 JLINK_IsHalted()  returns FALSE (0000ms, 18508ms total)
T3100 7022:342 JLINK_IsHalted()  returns FALSE (0000ms, 18508ms total)
T3100 7022:369 JLINK_IsHalted() -- CPU_ReadMem(2 bytes @ 0x20000000)  returns TRUE (0005ms, 18513ms total)
T3100 7022:374 JLINK_ReadReg(R15 (PC))  returns 0x20000000 (0000ms, 18508ms total)
T3100 7022:374 JLINK_ClrBPEx(BPHandle = 0x0000000B)  returns 0x00 (0000ms, 18508ms total)
T3100 7022:374 JLINK_ReadReg(R0)  returns 0x00000000 (0000ms, 18508ms total)
T3100 7022:375 JLINK_WriteMem(0x20000164, 0x029C Bytes, ...) - Data: 83 89 0B 43 83 81 02 E0 83 89 8B 43 83 81 70 47 ... -- CPU_WriteMem(668 bytes @ 0x20000164)  returns 0x29C (0008ms, 18516ms total)
T3100 7022:383 JLINK_WriteMem(0x20000400, 0x0164 Bytes, ...) - Data: 85 15 2C 43 84 80 82 83 CD 88 A0 F8 40 50 03 84 ... -- CPU_WriteMem(356 bytes @ 0x20000400)  returns 0x164 (0004ms, 18520ms total)
T3100 7022:387 JLINK_WriteReg(R0, 0x08001C00)  returns 0x00 (0000ms, 18520ms total)
T3100 7022:387 JLINK_WriteReg(R1, 0x00000400)  returns 0x00 (0000ms, 18520ms total)
T3100 7022:387 JLINK_WriteReg(R2, 0x20000164)  returns 0x00 (0000ms, 18520ms total)
T3100 7022:387 JLINK_WriteReg(R3, 0x00000000)  returns 0x00 (0000ms, 18520ms total)
T3100 7022:387 JLINK_WriteReg(R4, 0x00000000)  returns 0x00 (0000ms, 18520ms total)
T3100 7022:387 JLINK_WriteReg(R5, 0x00000000)  returns 0x00 (0000ms, 18520ms total)
T3100 7022:387 JLINK_WriteReg(R6, 0x00000000)  returns 0x00 (0000ms, 18520ms total)
T3100 7022:387 JLINK_WriteReg(R7, 0x00000000)  returns 0x00 (0000ms, 18520ms total)
T3100 7022:387 JLINK_WriteReg(R8, 0x00000000)  returns 0x00 (0000ms, 18520ms total)
T3100 7022:387 JLINK_WriteReg(R9, 0x20000160)  returns 0x00 (0000ms, 18520ms total)
T3100 7022:387 JLINK_WriteReg(R10, 0x00000000)  returns 0x00 (0000ms, 18520ms total)
T3100 7022:387 JLINK_WriteReg(R11, 0x00000000)  returns 0x00 (0000ms, 18520ms total)
T3100 7022:387 JLINK_WriteReg(R12, 0x00000000)  returns 0x00 (0000ms, 18520ms total)
T3100 7022:387 JLINK_WriteReg(R13 (SP), 0x20001000)  returns 0x00 (0000ms, 18520ms total)
T3100 7022:387 JLINK_WriteReg(R14, 0x20000001)  returns 0x00 (0000ms, 18520ms total)
T3100 7022:388 JLINK_WriteReg(R15 (PC), 0x200000F4)  returns 0x00 (0000ms, 18521ms total)
T3100 7022:388 JLINK_WriteReg(XPSR, 0x01000000)  returns 0x00 (0000ms, 18521ms total)
T3100 7022:388 JLINK_WriteReg(MSP, 0x20001000)  returns 0x00 (0000ms, 18521ms total)
T3100 7022:388 JLINK_WriteReg(PSP, 0x20001000)  returns 0x00 (0000ms, 18521ms total)
T3100 7022:388 JLINK_WriteReg(CFBP, 0x00000000)  returns 0x00 (0000ms, 18521ms total)
T3100 7022:388 JLINK_SetBPEx(Addr = 0x20000000, Type = 0xFFFFFFF2)  returns 0x0000000C (0000ms, 18521ms total)
T3100 7022:388 JLINK_Go() -- CPU_ReadMem(4 bytes @ 0xE0001000) (0004ms, 18525ms total)
T3100 7022:392 JLINK_IsHalted()  returns FALSE (0000ms, 18525ms total)
T3100 7022:400 JLINK_IsHalted()  returns FALSE (0000ms, 18525ms total)
T3100 7022:410 JLINK_IsHalted()  returns FALSE (0000ms, 18525ms total)
T3100 7022:413 JLINK_IsHalted()  returns FALSE (0000ms, 18525ms total)
T3100 7022:449 JLINK_IsHalted() -- CPU_ReadMem(2 bytes @ 0x20000000)  returns TRUE (0005ms, 18530ms total)
T3100 7022:454 JLINK_ReadReg(R15 (PC))  returns 0x20000000 (0000ms, 18525ms total)
T3100 7022:454 JLINK_ClrBPEx(BPHandle = 0x0000000C)  returns 0x00 (0000ms, 18525ms total)
T3100 7022:454 JLINK_ReadReg(R0)  returns 0x00000000 (0000ms, 18525ms total)
T3100 7022:455 JLINK_WriteMem(0x20000164, 0x029C Bytes, ...) - Data: 01 20 8D F8 03 00 68 46 FF F7 EE F9 01 21 04 48 ... -- CPU_WriteMem(668 bytes @ 0x20000164)  returns 0x29C (0007ms, 18532ms total)
T3100 7022:462 JLINK_WriteMem(0x20000400, 0x0164 Bytes, ...) - Data: FE F7 C4 FE AD F8 18 50 AD F8 14 40 00 20 AD F8 ... -- CPU_WriteMem(356 bytes @ 0x20000400)  returns 0x164 (0005ms, 18537ms total)
T3100 7022:467 JLINK_WriteReg(R0, 0x08002000)  returns 0x00 (0000ms, 18537ms total)
T3100 7022:467 JLINK_WriteReg(R1, 0x00000400)  returns 0x00 (0000ms, 18537ms total)
T3100 7022:467 JLINK_WriteReg(R2, 0x20000164)  returns 0x00 (0000ms, 18537ms total)
T3100 7022:467 JLINK_WriteReg(R3, 0x00000000)  returns 0x00 (0000ms, 18537ms total)
T3100 7022:467 JLINK_WriteReg(R4, 0x00000000)  returns 0x00 (0000ms, 18537ms total)
T3100 7022:467 JLINK_WriteReg(R5, 0x00000000)  returns 0x00 (0000ms, 18537ms total)
T3100 7022:467 JLINK_WriteReg(R6, 0x00000000)  returns 0x00 (0000ms, 18537ms total)
T3100 7022:467 JLINK_WriteReg(R7, 0x00000000)  returns 0x00 (0000ms, 18537ms total)
T3100 7022:467 JLINK_WriteReg(R8, 0x00000000)  returns 0x00 (0000ms, 18537ms total)
T3100 7022:467 JLINK_WriteReg(R9, 0x20000160)  returns 0x00 (0000ms, 18537ms total)
T3100 7022:467 JLINK_WriteReg(R10, 0x00000000)  returns 0x00 (0000ms, 18537ms total)
T3100 7022:467 JLINK_WriteReg(R11, 0x00000000)  returns 0x00 (0000ms, 18537ms total)
T3100 7022:467 JLINK_WriteReg(R12, 0x00000000)  returns 0x00 (0000ms, 18537ms total)
T3100 7022:467 JLINK_WriteReg(R13 (SP), 0x20001000)  returns 0x00 (0000ms, 18537ms total)
T3100 7022:467 JLINK_WriteReg(R14, 0x20000001)  returns 0x00 (0000ms, 18537ms total)
T3100 7022:467 JLINK_WriteReg(R15 (PC), 0x200000F4)  returns 0x00 (0000ms, 18537ms total)
T3100 7022:467 JLINK_WriteReg(XPSR, 0x01000000)  returns 0x00 (0000ms, 18537ms total)
T3100 7022:467 JLINK_WriteReg(MSP, 0x20001000)  returns 0x00 (0000ms, 18537ms total)
T3100 7022:467 JLINK_WriteReg(PSP, 0x20001000)  returns 0x00 (0000ms, 18537ms total)
T3100 7022:467 JLINK_WriteReg(CFBP, 0x00000000)  returns 0x00 (0000ms, 18537ms total)
T3100 7022:467 JLINK_SetBPEx(Addr = 0x20000000, Type = 0xFFFFFFF2)  returns 0x0000000D (0000ms, 18537ms total)
T3100 7022:467 JLINK_Go() -- CPU_ReadMem(4 bytes @ 0xE0001000) (0004ms, 18541ms total)
T3100 7022:471 JLINK_IsHalted()  returns FALSE (0000ms, 18541ms total)
T3100 7022:506 JLINK_IsHalted() -- CPU_ReadMem(2 bytes @ 0x20000000)  returns TRUE (0005ms, 18546ms total)
T3100 7022:511 JLINK_ReadReg(R15 (PC))  returns 0x20000000 (0000ms, 18541ms total)
T3100 7022:511 JLINK_ClrBPEx(BPHandle = 0x0000000D)  returns 0x00 (0000ms, 18541ms total)
T3100 7022:511 JLINK_ReadReg(R0)  returns 0x00000000 (0000ms, 18541ms total)
T3100 7022:512 JLINK_WriteMem(0x20000164, 0x029C Bytes, ...) - Data: 00 20 4F F0 E0 22 90 61 07 20 10 61 00 20 EF E7 ... -- CPU_WriteMem(668 bytes @ 0x20000164)  returns 0x29C (0007ms, 18548ms total)
T3100 7022:520 JLINK_WriteMem(0x20000400, 0x0164 Bytes, ...) - Data: 20 00 00 00 49 42 55 53 45 52 52 20 00 00 00 00 ... -- CPU_WriteMem(356 bytes @ 0x20000400)  returns 0x164 (0004ms, 18553ms total)
T3100 7022:524 JLINK_WriteReg(R0, 0x08002400)  returns 0x00 (0000ms, 18553ms total)
T3100 7022:524 JLINK_WriteReg(R1, 0x00000400)  returns 0x00 (0000ms, 18553ms total)
T3100 7022:524 JLINK_WriteReg(R2, 0x20000164)  returns 0x00 (0000ms, 18553ms total)
T3100 7022:524 JLINK_WriteReg(R3, 0x00000000)  returns 0x00 (0000ms, 18553ms total)
T3100 7022:524 JLINK_WriteReg(R4, 0x00000000)  returns 0x00 (0000ms, 18553ms total)
T3100 7022:524 JLINK_WriteReg(R5, 0x00000000)  returns 0x00 (0000ms, 18553ms total)
T3100 7022:524 JLINK_WriteReg(R6, 0x00000000)  returns 0x00 (0000ms, 18553ms total)
T3100 7022:524 JLINK_WriteReg(R7, 0x00000000)  returns 0x00 (0000ms, 18553ms total)
T3100 7022:524 JLINK_WriteReg(R8, 0x00000000)  returns 0x00 (0000ms, 18553ms total)
T3100 7022:524 JLINK_WriteReg(R9, 0x20000160)  returns 0x00 (0000ms, 18553ms total)
